!Keysight Technologies,M9808A,MY58100004,Z.13.03.239
!Automatic Fixture Removal (AFR)
!Date: Tuesday, September 10, 2019, 11:04:20
!S2P File: Measurements: S11,S21,S12,S22:
# MHz S  RI   R 50
10           0.0092605449598844       -0.000123067093646651    0.996594212154903        -0.0662183336920164      0.996594212154903        -0.0662183336920164      0.0277065168970542       9.77807676939274E-05    
20           0.0093097092299079       -0.000255804309401388    0.989473792878083        -0.132073031179578       0.989473792878083        -0.132073031179578       0.0278638737120912       0.000171648657943285    
30           0.00937190667032671      -0.000400810563049622    0.978083747207137        -0.197289434415683       0.978083747207137        -0.197289434415683       0.0281183396583254       0.000198643913549854    
40           0.00944552731242415      -0.000560919115316116    0.962443786182845        -0.26158704603769        0.962443786182845        -0.26158704603769        0.0284585330339357       0.000157527132546882    
50           0.00952754919391329      -0.000738618275726127    0.942611671246897        -0.324687215977901       0.942611671246897        -0.324687215977901       0.0288691326991129       2.96788888092535E-05    
60           0.00961409617333539      -0.000935801466465757    0.918669949148491        -0.386315876486331       0.918669949148491        -0.386315876486331       0.029331453625225        -0.000200202619492451   
70           0.00970070790255848      -0.00115368594554273     0.89072211765107         -0.446204928604363       0.89072211765107         -0.446204928604364       0.0298241182787285       -0.000543556759572543   
80           0.00978252818184058      -0.00139267358857262     0.858890579056438        -0.504094092024994       0.858890579056439        -0.504094092024994       0.0303239187045802       -0.00100751473898985    
90           0.0098544402971898       -0.00165230401641001     0.823315602780516        -0.559731733792892       0.823315602780516        -0.559731733792892       0.0308066307047669       -0.00159467568107406    
100          0.00991129158570522      -0.0019312314927059      0.784154174587045        -0.61287632317426        0.784154174587045        -0.612876323174259       0.0312478725021991       -0.00230293846409463    
110          0.00994800256801716      -0.0022271794527356      0.741579129437701        -0.66329736419353        0.741579129437701        -0.66329736419353        0.0316241043332047       -0.00312563826333943    
120          0.00995976108926768      -0.00253700830600042     0.69577822248692         -0.710776413298539       0.69577822248692         -0.710776413298539       0.0319133387449363       -0.00405179980602813    
130          0.00994221890575085      -0.00285671868476099     0.646953123813979        -0.755108059206519       0.646953123813979        -0.755108059206519       0.0320960232796753       -0.00506652736110597    
140          0.00989156199914805      -0.00318157327362178     0.595318723144693        -0.796100541016758       0.595318723144693        -0.796100541016758       0.0321556420550643       -0.00615154506190378    
150          0.00980472017757849      -0.00350611088489126     0.541101791467356        -0.833576859216305       0.541101791467356        -0.833576859216305       0.0320793344914093       -0.00728588347599882    
160          0.00967948687733619      -0.00382434244001901     0.484540314947229        -0.867375212243257       0.484540314947229        -0.867375212243257       0.0318582680552517       -0.00844660209721008    
170          0.0095145742838216       -0.00412984369472626     0.425882223007838        -0.897349835297229       0.425882223007838        -0.897349835297229       0.0314878926821603       -0.00960961004759696    
180          0.00930975960057448      -0.00441588773983165     0.365384559278923        -0.923371462536446       0.365384559278923        -0.923371462536446       0.0309680396283722       -0.010750471440045      
190          0.00906590668774346      -0.00467564739732767     0.303312251371721        -0.945327956945892       0.303312251371721        -0.945327956945892       0.0303028816231732       -0.0118452409299028     
200          0.00878503297569234      -0.00490236556581202     0.239937009480521        -0.963124770679918       0.239937009480521        -0.963124770679918       0.029500687515063        -0.0128712311593807     
210          0.00847030571638368      -0.00508947590347309     0.175536246691185        -0.976685339253478       0.175536246691185        -0.976685339253478       0.0285734389190327       -0.0138077259141159     
220          0.00812604600604109      -0.00523084862352714     0.110391964233433        -0.985951433240402       0.110391964233433        -0.985951433240402       0.0275364553437336       -0.0146366060191542     
230          0.0077576304238351       -0.00532093618348365     0.0447894026472866       -0.990883475889629       0.0447894026472867       -0.990883475889629       0.0264076408951163       -0.0153428490737941     
240          0.0073715195371909       -0.00535496260521724     -0.020983999817709       -0.991460724986966       -0.020983999817709       -0.991460724986966       0.0252070244739905       -0.0159149006986308     
250          0.00697506408920191      -0.00532908203140553     -0.0866399109639838      -0.987681433500363       -0.0866399109639838      -0.987681433500363       0.0239559262465849       -0.0163449199516236     
260          0.00657642834282747      -0.0052404845109074      -0.151890341453548       -0.979562912471174       -0.151890341453548       -0.979562912471174       0.0226762902215152       -0.0166288762958765     
270          0.00618443725787183      -0.00508762258442474     -0.216448951767977       -0.967141504464117       -0.216448951767977       -0.967141504464117       0.0213900047227495       -0.0167665241878629     
280          0.00580839624433662      -0.00487022858739763     -0.280032244489987       -0.950472490679648       -0.280032244489987       -0.950472490679648       0.0201181409540916       -0.0167612027632234     
290          0.0054579330865688       -0.00458947252619658     -0.342361014325734       -0.929629842667382       -0.342361014325734       -0.929629842667382       0.0188804765618023       -0.0166195732122038     
300          0.005142745018014        -0.00424797168702119     -0.403161204954484       -0.904706066991687       -0.403161204954484       -0.904706066991687       0.0176948656103986       -0.0163511971752983     
310          0.00487240773296591      -0.00384983980571649     -0.462165768391065       -0.875811606908678       -0.462165768391065       -0.875811606908678       0.0165768998532747       -0.0159681383381414     
320          0.00465616110816031      -0.00340067749790829     -0.519115148777637       -0.843074685226473       -0.519115148777637       -0.843074685226473       0.0155395059720842       -0.0154843721787707     
330          0.00450266453159898      -0.00290756096979066     -0.573759260011072       -0.806640356165824       -0.573759260011072       -0.806640356165824       0.0145928157770399       -0.0149152565194969     
340          0.0044197778708048       -0.00237893865708238     -0.625857964406649       -0.766670213948041       -0.625857964406649       -0.766670213948041       0.0137440240893836       -0.0142769852706984     
350          0.00441435167427945      -0.00182454726537498     -0.675182544523612       -0.723341449838482       -0.675182544523612       -0.723341449838482       0.0129974569420593       -0.0135860054818213     
360          0.00449198026346735      -0.00125525653772662     -0.721516600208648       -0.676846137806548       -0.721516600208649       -0.676846137806548       0.012354670333121        -0.0128585328079877     
370          0.00465689713565332      -0.000682917654366931    -0.764657118251615       -0.62739026642619        -0.764657118251615       -0.62739026642619        0.0118146423806264       -0.0121101001342444     
380          0.00491176167856834      -0.000120205296229168    -0.804415236474656       -0.575192948644549       -0.804415236474655       -0.575192948644549       0.0113740582420111       -0.0113551585826562     
390          0.00525748857096516      0.000419707616931781     -0.840617219027983       -0.520485272523069       -0.840617219027983       -0.520485272523069       0.0110276772890369       -0.0106067430434413     
400          0.00569320708668345      0.000923300888511616     -0.873105167449417       -0.463509289295143       -0.873105167449417       -0.463509289295144       0.0107686620298708       -0.00987628357972998    
410          0.00621614359157594      0.00137698530861205      -0.901737714043112       -0.404516880946353       -0.901737714043112       -0.404516880946353       0.0105889716009879       -0.00917345605017886    
420          0.00682159840907746      0.00176740746961371      -0.926390553352481       -0.343768771085916       -0.926390553352481       -0.343768771085916       0.010479774309024        -0.00850610262035125    
430          0.00750296738148624      0.00208170372470014      -0.946957068377403       -0.281533152084824       -0.946957068377403       -0.281533152084824       0.0104317239638808       -0.00788025164867905    
440          0.00825176177411565      0.0023077654717217       -0.963348709325809       -0.218084604365481       -0.963348709325809       -0.218084604365481       0.0104353454893916       -0.00730020475080957    
450          0.0090576684693859       0.00243453164363016      -0.975495369581907       -0.153702836194907       -0.975495369581907       -0.153702836194907       0.0104813341001942       -0.00676866802762012    
460          0.0099087344310547       0.00245225342285236      -0.983345658763768       -0.0886714766107783      -0.983345658763768       -0.0886714766107782      0.0105607076299024       -0.00628688811567836    
470          0.0107914683649849       0.00235273292360709      -0.986867102024747       -0.0232768901784173      -0.986867102024747       -0.0232768901784173      0.0106650891378678       -0.00585492049025701    
480          0.0116910688819484       0.00212956215427812      -0.986046278426035       0.0421932304014279       -0.986046278426035       0.0421932304014279       0.0107867017894327       -0.0054717388549307     
490          0.012591623714408        0.00177829586322752      -0.980888826965043       0.107451149806619        -0.980888826965043       0.107451149806619        0.0109185406239921       -0.00513548477790491    
500          0.013476413455307        0.00129664672672401      -0.971419424761224       0.172210028048257        -0.971419424761224       0.172210028048257        0.0110543330755728       -0.0048437091284956     
510          0.0143281362951135       0.000684602689626382     -0.957681644498402       0.236185532502406        -0.957681644498402       0.236185532502406        0.0111885652058722       -0.00459341886309591    
520          0.0151292568538219       -5.54644291079191E-05    -0.93973776876837        0.299096855291915        -0.93973776876837        0.299096855291915        0.0113164037684831       -0.00438132772626297    
530          0.0158623484011287       -0.00091877586612839     -0.917668498995694       0.360668017776904        -0.917668498995694       0.360668017776904        0.0114336113650637       -0.00420385987785879    
540          0.0165103177506563       -0.00189811623293594     -0.891572561941619       0.420629123582741        -0.891572561941619       0.420629123582741        0.0115365719318344       -0.0040572955758057     
550          0.0170568434751712       -0.0029838654073079      -0.861566355896235       0.47871733516749         -0.861566355896235       0.47871733516749         0.011622082219783        -0.0039377550376702     
560          0.0174866624339727       -0.00416412183864941     -0.827783284660453       0.53467833211271         -0.827783284660453       0.53467833211271         0.0116874579394572       -0.00384122260806881    
570          0.0177858821000421       -0.00542479672574559     -0.790373333396215       0.588267087087887        -0.790373333396216       0.588267087087887        0.0117303633680121       -0.00376353704892453    
580          0.0179422854062028       -0.00674979438185136     -0.749502322751164       0.639249113120006        -0.749502322751164       0.639249113120006        0.0117488655692284       -0.00370037997681153    
590          0.0179456541665638       -0.00812125947658945     -0.705351094838205       0.687401554028066        -0.705351094838205       0.687401554028066        0.0117414717371265       -0.00364723096548538    
600          0.0177879597975062       -0.00951982293311718     -0.658114880478505       0.732513947395429        -0.658114880478505       0.732513947395429        0.0117071156077619       -0.00359934581599038    
610          0.0174636147348918       -0.0109248510049399      -0.608002310161241       0.774389294289574        -0.608002310161241       0.774389294289574        0.0116452156788398       -0.00355176382249295    
620          0.0169696605823997       -0.0123148567109296      -0.555234537775897       0.812844854299784        -0.555234537775897       0.812844854299784        0.0115558401597929       -0.00349933929615314    
630          0.0163058848578592       -0.0136677803024698      -0.500044331331632       0.847712902197614        -0.500044331331632       0.847712902197614        0.0114396635162142       -0.00343670939447771    
640          0.0154749297667191       -0.0149613961878939      -0.442674906886065       0.878841548113539        -0.442674906886065       0.878841548113539        0.0112982123390923       -0.00335848034950418    
650          0.0144823456481466       -0.0161736873125496      -0.383379006628329       0.906095298281297        -0.383379006628329       0.906095298281297        0.0111337935907738       -0.00325922488387025    
660          0.0133365264962595       -0.0172832403590029      -0.322417780489814       0.929355665220254        -0.322417780489814       0.929355665220255        0.0109496600286944       -0.00313370628277898    
670          0.0120487222415842       -0.0182696299543824      -0.260059483611688       0.948521738348042        -0.260059483611688       0.948521738348042        0.0107500326070575       -0.00297698604419381    
680          0.010632864802532        -0.0191138208057557      -0.196578688884325       0.96351049813985         -0.196578688884326       0.96351049813985         0.0105400892407966       -0.00278459788516764    
690          0.00910543280161806      -0.0197985378529017      -0.132254528647856       0.974257342459785        -0.132254528647856       0.974257342459785        0.0103259297146364       -0.00255280957104707    
700          0.00748521305965493      -0.0203085399052653      -0.0673700786006427      0.980716222688635        -0.0673700786006427      0.980716222688635        0.0101145065655385       -0.00227875418917703    
710          0.00579307377039977      -0.0206310867507472      -0.00221071205556917     0.982859947922139        -0.00221071205556917     0.982859947922139        0.00991348849172841      -0.00196065258260438    
720          0.0040515834847205       -0.0207560770026964      0.0629370031859889       0.980680277771063        0.0629370031859889       0.980680277771063        0.00973112006009201      -0.00159797050634706    
730          0.00228476804311208      -0.020676386487127       0.127786574448541        0.974187971935799        0.127786574448541        0.974187971935799        0.0095760029180357       -0.00119157892098237    
740          0.00051764475904941      -0.0203880196968309      0.192052752645187        0.963412772648833        0.192052752645187        0.963412772648833        0.00945683242195581      -0.000743846546915704   
750          -0.00122414778397846     -0.0198902612247057      0.255452858493077        0.94840329752378         0.255452858493077        0.948403297523781        0.00938217049683301      -0.000258657966273579   
760          -0.00291478094786644     -0.019185784500206       0.317708218639067        0.929226783131025        0.317708218639067        0.929226783131025        0.00936012580720473      0.00025849601618466     
770          -0.0045286931392221      -0.0182806765586569      0.378545055369019        0.905968883088313        0.378545055369019        0.905968883088312        0.0093981109404128       0.000800647812462285    
780          -0.00604101785678254     -0.0171843765145194      0.437695929001016        0.878733257327767        0.437695929001016        0.878733257327768        0.00950252761995046      0.00135940848458107     
790          -0.00742802959830898     -0.0159096831259644      0.49490092874388         0.847641108081355        0.49490092874388         0.847641108081355        0.00967849094926548      0.00192516400166659     
800          -0.00866760707511168     -0.014472502418078       0.549908759463293        0.812830680278058        0.549908759463293        0.812830680278058        0.00992970325133447      0.0024872400798987      
810          -0.00973962673243564     -0.0128917026347464      0.602477930762508        0.774456621497613        0.602477930762508        0.774456621497613        0.0102581210652774       0.00303423819149175     
820          -0.0106263636267732      -0.0111888247838563      0.652377791235153        0.732689321318433        0.652377791235153        0.732689321318433        0.0106639422113951       0.00355420688381151     
830          -0.0113128096821346      -0.00938778747409404     0.699389647153479        0.687714078425286        0.69938964715348         0.687714078425286        0.0111454437917767       0.00403503528092002     
840          -0.0117870717954736      -0.00751451136388884     0.743307629151149        0.63973035717843         0.743307629151149        0.63973035717843         0.0116989775671884       0.00446474303567201     
850          -0.0120405625247947      -0.00559649136490106     0.783939771009642        0.588950711232279        0.783939771009642        0.588950711232279        0.0123190028645062       0.00483181547471252     
860          -0.0120682390904545      -0.00366236377914842     0.821108625876287        0.535600081187857        0.821108625876287        0.535600081187857        0.0129982046507367       0.00512543598890138     
870          -0.0118687716549169      -0.0017414552602171      0.854652283083663        0.479914486883718        0.854652283083663        0.479914486883718        0.0137275377302952       0.00533590950666476     
880          -0.0114446144612647      0.000136757115098329     0.884424948305194        0.422140078537855        0.884424948305194        0.422140078537855        0.0144965454238969       0.00545478874028437     
890          -0.0108020359361379      0.00194312900415351      0.910297524672611        0.362532139805083        0.910297524672611        0.362532139805083        0.0152934764329472       0.005475156225108       
900          -0.00995107236328136     0.00364937063354703      0.932158240541104        0.3013538143746          0.932158240541103        0.3013538143746          0.0161055712551406       0.00539175567599716     
910          -0.0089054202907598      0.00522856420983807      0.949913182700945        0.238874623012039        0.949913182700945        0.238874623012039        0.0169193462307771       0.00520114200863292     
920          -0.00768226463181481     0.00665560938558588      0.963486420973895        0.175370068452303        0.963486420973895        0.175370068452303        0.0177208731557789       0.00490174942858148     
