!Keysight Technologies,M9808A,MY58100004,Z.13.03.239
!Automatic Fixture Removal (AFR)
!Date: Tuesday, September 10, 2019, 11:03:22
!S1P File: Measurements: S11:
# MHz S  RI   R 50
10           0.990113973617554        -0.133230373263359      
20           0.965608239173889        -0.262065082788467      
30           0.921027898788452        -0.387628763914108      
40           0.861724257469177        -0.50403243303299       
50           0.787933230400085        -0.61394327878952       
60           0.700558185577393        -0.712414026260376      
70           0.600298523902893        -0.798575758934021      
80           0.48847034573555         -0.871257126331329      
90           0.368791431188583        -0.927200019359589      
100          0.24165652692318         -0.967700362205505      
110          0.111284583806992        -0.990534961223602      
120          -0.0218442939221859      -0.994395971298218      
130          -0.154424890875816       -0.981699883937836      
140          -0.283841907978058       -0.949534893035889      
150          -0.407530397176743       -0.902789652347565      
160          -0.523503124713898       -0.838471293449402      
170          -0.629181027412415       -0.759949862957001      
180          -0.721752107143402       -0.666934251785278      
190          -0.805664241313934       -0.56025505065918       
200          -0.87164980173111        -0.44854474067688       
210          -0.92348700761795        -0.326036214828491      
220          -0.957147717475891       -0.201156511902809      
230          -0.973327934741974       -0.0688756629824638     
240          -0.973178625106812       0.0607592612504959      
250          -0.953801929950714       0.190573111176491       
260          -0.91846364736557        0.315195560455322       
270          -0.866332709789276       0.434793502092361       
280          -0.800370216369629       0.546395063400269       
290          -0.72094863653183        0.64697927236557        
300          -0.626365065574646       0.735835909843445       
310          -0.521362006664276       0.813451111316681       
320          -0.409364193677902       0.874835252761841       
330          -0.2899549305439         0.922357201576233       
340          -0.165211513638496       0.952359914779663       
350          -0.0392377190291882      0.965816020965576       
360          0.0895704180002213       0.962435185909271       
370          0.216010510921478        0.942579865455627       
380          0.338457226753235        0.906203806400299       
390          0.455859452486038        0.855282783508301       
400          0.56311696767807         0.788776278495789       
410          0.662186443805695        0.709101855754852       
420          0.750661551952362        0.615845024585724       
430          0.824636697769165        0.511551916599274       
440          0.886383235454559        0.398864537477493       
450          0.930610060691834        0.279582500457764       
460          0.961139023303986        0.156767562031746       
470          0.973084270954132        0.0290239695459604      
480          0.970993041992188        -0.0972386673092842     
490          0.948036313056946        -0.224091067910194      
500          0.913686096668243        -0.345679730176926      
510          0.860524713993073        -0.462010711431503      
520          0.791522979736328        -0.569770395755768      
530          0.708788990974426        -0.668727815151215      
540          0.616112947463989        -0.755479037761688      
550          0.511350572109222        -0.829867959022522      
560          0.397981435060501        -0.888267517089844      
570          0.276630997657776        -0.932878851890564      
580          0.153479471802711        -0.960880935192108      
590          0.0252929255366325       -0.970334112644196      
600          -0.10201807320118        -0.965312302112579      
610          -0.227640837430954       -0.941682040691376      
620          -0.347407966852188       -0.901021778583527      
630          -0.464420437812805       -0.846653580665588      
640          -0.569099068641663       -0.776669263839722      
650          -0.66676938533783        -0.693670809268951      
660          -0.751400351524353       -0.597767651081085      
670          -0.822235703468323       -0.491961091756821      
680          -0.878895163536072       -0.379450470209122      
690          -0.918796598911285       -0.258462607860565      
700          -0.944832742214203       -0.134800776839256      
710          -0.952527761459351       -0.0081454087048769     
720          -0.943113029003143       0.11697743833065        
730          -0.918939232826233       0.241519406437874       
740          -0.878719627857208       0.359860837459564       
750          -0.82171630859375        0.473937690258026       
760          -0.750993847846985       0.57695084810257        
770          -0.66794490814209        0.672532677650452       
780          -0.572416841983795       0.754331529140472       
790          -0.466991633176804       0.82234388589859        
800          -0.352168470621109       0.877939462661743       
810          -0.232773005962372       0.918604612350464       
820          -0.108349703252316       0.941936016082764       
830          0.0162192564457655       0.947358846664429       
840          0.141817435622215        0.938605427742004       
850          0.266270101070404        0.912048399448395       
860          0.385322272777557        0.869384527206421       
870          0.495981186628342        0.812672197818756       
880          0.599273025989532        0.740777432918549       
890          0.692785322666168        0.653258919715881       
900          0.774954855442047        0.557301759719849       
910          0.842209339141846        0.450741082429886       
920          0.895971596240997        0.335760921239853       
930          0.93403548002243         0.213990017771721       
940          0.955262243747711        0.0889051407575607      
950          0.95790559053421         -0.0393054820597172     
960          0.94634747505188         -0.166268453001976      
970          0.916472613811493        -0.290504157543182      
980          0.869743764400482        -0.408665716648102      
990          0.807120859622955        -0.523271262645721      
1000         0.731239914894104        -0.624742329120636      
1010         0.642585813999176        -0.716994345188141      
1020         0.541996538639069        -0.793767154216766      
1030         0.429586797952652        -0.860613226890564      
1040         0.312532275915146        -0.908794045448303      
1050         0.188039541244507        -0.942189931869507      
1060         0.0614134334027767       -0.956223726272583      
1070         -0.0660470500588417      -0.95546555519104       
1080         -0.192704424262047       -0.937532365322113      
1090         -0.31547287106514        -0.901005685329437      
1100         -0.43096187710762        -0.851160287857056      
1110         -0.540060698986053       -0.784530878067017      
1120         -0.63848614692688        -0.704683601856232      
1130         -0.72609943151474        -0.612726747989655      
1140         -0.798621535301209       -0.510005474090576      
1150         -0.858220458030701       -0.398617386817932      
1160         -0.901087760925293       -0.281304478645325      
1170         -0.929635167121887       -0.15838460624218       
1180         -0.941759526729584       -0.0330193527042866     
1190         -0.934759616851807       0.0905336663126946      
1200         -0.913797855377197       0.212528869509697       
1210         -0.877319276332855       0.329543054103851       
1220         -0.826873302459717       0.442861020565033       
1230         -0.759312331676483       0.546317398548126       
1240         -0.680669069290161       0.640635132789612       
1250         -0.590222418308258       0.723755419254303       
1260         -0.489467769861221       0.79585212469101        
1270         -0.382422298192978       0.850584506988525       
1280         -0.266820698976517       0.894937098026276       
1290         -0.146220475435257       0.92308521270752        
1300         -0.0251283422112465      0.933552324771881       
1310         0.0949843972921371       0.928327858448029       
1320         0.217565223574638        0.909340083599091       
1330         0.332352727651596        0.875573217868805       
1340         0.444984436035156        0.82458359003067        
1350         0.54713761806488         0.760304570198059       
1360         0.643953680992126        0.682037949562073       
1370         0.727828025817871        0.593473434448242       
1380         0.799488365650177        0.494479537010193       
1390         0.858317077159882        0.387343496084213       
1400         0.901917576789856        0.271986722946167       
1410         0.929527759552002        0.154124289751053       
1420         0.943332374095917        0.0318436697125435      
1430         0.941729307174683        -0.0922143831849098     
1440         0.922593295574188        -0.212329879403114      
1450         0.887568295001984        -0.328873515129089      
1460         0.837830901145935        -0.443654358386993      
1470         0.77345210313797         -0.546388804912567      
1480         0.696528732776642        -0.644721210002899      
1490         0.605309307575226        -0.72968465089798       
1500         0.505478739738464        -0.802018761634827      
1510         0.397067010402679        -0.862947106361389      
1520         0.279020220041275        -0.904904007911682      
1530         0.158499553799629        -0.934394359588623      
1540         0.0348732173442841       -0.948010265827179      
1550         -0.089155524969101       -0.941765308380127      
1560         -0.213168323040009       -0.920334219932556      
1570         -0.330459296703339       -0.88622123003006       
1580         -0.44324654340744        -0.832180380821228      
1590         -0.548894762992859       -0.765476226806641      
1600         -0.643400371074677       -0.685105800628662      
1610         -0.726947367191315       -0.594355404376984      
1620         -0.799365341663361       -0.490244060754776      
1630         -0.855124413967133       -0.38113072514534       
1640         -0.89619654417038        -0.263676345348358      
1650         -0.92343270778656        -0.14137314260006       
1660         -0.931817471981049       -0.016865499317646      
1670         -0.923654496669769       0.106203302741051       
1680         -0.901780128479004       0.227817997336388       
1690         -0.861073076725006       0.346013575792313       
1700         -0.806544959545136       0.455478072166443       
1710         -0.737728297710419       0.559528410434723       
1720         -0.655282974243164       0.651270866394043       
1730         -0.56184047460556        0.732131958007813       
1740         -0.45967823266983        0.799285113811493       
1750         -0.348231464624405       0.853396475315094       
1760         -0.231732428073883       0.892223417758942       
1770         -0.111388579010963       0.91335791349411        
1780         0.0120239173993468       0.920657813549042       
1790         0.134146586060524        0.911105692386627       
1800         0.254384547472           0.885891199111938       
1810         0.372262001037598        0.841980278491974       
1820         0.478659838438034        0.788300693035126       
1830         0.578364491462708        0.71830278635025        
1840         0.671577155590057        0.635373413562775       
1850         0.750118792057037        0.541281580924988       
1860         0.814858436584473        0.435225337743759       
1870         0.867235898971558        0.324680984020233       
1880         0.902507901191711        0.208016067743301       
1890         0.922290205955505        0.0851478204131126      
1900         0.926898598670959        -0.0364885739982128     
1910         0.916675746440887        -0.159825310111046      
1920         0.885670900344849        -0.280785143375397      
1930         0.841434419155121        -0.395150393247604      
1940         0.782107710838318        -0.503386795520782      
1950         0.708984732627869        -0.601956605911255      
1960         0.624589681625366        -0.688865542411804      
1970         0.528448760509491        -0.767324149608612      
1980         0.420710533857346        -0.832117676734924      
1990         0.309409111738205        -0.877445816993713      
2000         0.189024910330772        -0.911539196968079      
2010         0.0693159326910973       -0.926369369029999      
2020         -0.053609162569046       -0.927542448043823      
2030         -0.175942853093147       -0.910256624221802      
2040         -0.293418139219284       -0.877734482288361      
2050         -0.405101209878922       -0.831715941429138      
2060         -0.5131676197052         -0.771147549152374      
2070         -0.608702540397644       -0.695913076400757      
2080         -0.693625509738922       -0.608738243579865      
2090         -0.764810919761658       -0.510921120643616      
2100         -0.82833606004715        -0.403738915920258      
2110         -0.872812390327454       -0.290525853633881      
2120         -0.903175234794617       -0.171790584921837      
2130         -0.915663063526154       -0.0507429428398609     
2140         -0.913012564182281       0.0705650821328163      
2150         -0.896023094654083       0.19083671271801        
2160         -0.863153517246246       0.311023205518723       
2170         -0.813198804855347       0.41997691988945        
2180         -0.747017323970795       0.525788068771362       
2190         -0.669830203056335       0.619673252105713       
2200         -0.580687761306763       0.703288793563843       
2210         -0.47963011264801        0.774522006511688       
2220         -0.371963262557983       0.833058416843414       
2230         -0.255044162273407       0.874198436737061       
2240         -0.136741235852242       0.900354743003845       
2250         -0.0140981180593371      0.909922778606415       
2260         0.108794890344143        0.903953909873962       
2270         0.230043962597847        0.880985915660858       
2280         0.34416863322258         0.843265771865845       
2290         0.454117804765701        0.788081109523773       
2300         0.555761754512787        0.720131814479828       
2310         0.647276699542999        0.639210045337677       
2320         0.728591680526733        0.547040104866028       
2330         0.793817460536957        0.445943176746368       
2340         0.848387122154236        0.336012363433838       
2350         0.885987341403961        0.220289930701256       
2360         0.908711135387421        0.0982772260904312      
2370         0.913870751857758        -0.0217667315155268     
2380         0.903583705425262        -0.145879179239273      
2390         0.877659499645233        -0.263283967971802      
2400         0.835243046283722        -0.378711998462677      
2410         0.778276026248932        -0.482491910457611      
2420         0.711253583431244        -0.582877099514008      
2430         0.626318454742432        -0.671573162078857      
2440         0.533828139305115        -0.747256398200989      
2450         0.431255102157593        -0.812728762626648      
2460         0.322148025035858        -0.862716495990753      
2470         0.205268785357475        -0.897350132465363      
2480         0.0872280821204185       -0.917994141578674      
2490         -0.0329432636499405      -0.921518862247467      
2500         -0.154569134116173       -0.909311294555664      
2510         -0.269529849290848       -0.880850434303284      
2520         -0.380756229162216       -0.839927196502686      
2530         -0.485855966806412       -0.781136870384216      
2540         -0.58394318819046        -0.71275794506073       
2550         -0.669155120849609       -0.631118059158325      
2560         -0.74432772397995        -0.538119912147522      
2570         -0.805434703826904       -0.437570095062256      
2580         -0.855768382549286       -0.330682456493378      
2590         -0.889748334884644       -0.218545019626617      
2600         -0.910300493240356       -0.0997513458132744     
2610         -0.914631009101868       0.0160260368138552      
2620         -0.904557943344116       0.134590044617653       
2630         -0.877816200256348       0.249411880970001       
2640         -0.83725643157959        0.360257148742676       
2650         -0.784328579902649       0.463091284036636       
2660         -0.717342436313629       0.56109756231308        
2670         -0.63744854927063        0.64816802740097        
2680         -0.551316738128662       0.722839057445526       
2690         -0.449245870113373       0.78913414478302        
2700         -0.344760060310364       0.839007198810577       
2710         -0.232950672507286       0.877659857273102       
2720         -0.11684911698103        0.898849070072174       
2730         0.00319365342147648      0.90452778339386        
2740         0.119078785181046        0.896004319190979       
2750         0.236636951565742        0.872738659381866       
2760         0.348198980093002        0.832657039165497       
2770         0.454013586044312        0.782185316085815       
2780         0.550942122936249        0.716560661792755       
2790         0.641898810863495        0.635887503623962       
2800         0.719237148761749        0.545903265476227       
2810         0.784798502922058        0.446200609207153       
2820         0.837912499904633        0.338496893644333       
2830         0.874549567699432        0.223522633314133       
2840         0.897458612918854        0.105464600026608       
2850         0.903636157512665        -0.0144190173596144     
2860         0.894513428211212        -0.134832054376602      
2870         0.869245171546936        -0.255163669586182      
2880         0.826772093772888        -0.367026418447495      
2890         0.770420968532562        -0.474861025810242      
2900         0.700734257698059        -0.575145959854126      
2910         0.617493748664856        -0.661874949932098      
2920         0.523176729679108        -0.737312436103821      
2930         0.420868813991547        -0.802465260028839      
2940         0.307401090860367        -0.850541174411774      
2950         0.191475033760071        -0.884911000728607      
2960         0.0712081640958786       -0.902149260044098      
2970         -0.0500732250511646      -0.903756976127625      
2980         -0.169614151120186       -0.887602508068085      
2990         -0.28935694694519        -0.858124852180481      
3000         -0.398630350828171       -0.81249725818634       
3010         -0.502879858016968       -0.750811815261841      
3020         -0.598915755748749       -0.678607940673828      
3030         -0.681891858577728       -0.592537045478821      
3040         -0.75581282377243        -0.495097249746323      
3050         -0.813206613063812       -0.391231894493103      
3060         -0.857558250427246       -0.281386703252792      
3070         -0.886468291282654       -0.16443344950676       
3080         -0.902113139629364       -0.0441820695996284     
3090         -0.898139774799347       0.0718585550785065      
